# cvdp_copilot_wb2ahb_0001

Category: cid003
Difficulty: medium

## Prompt
Design a System Verilog module named `wishbone_to_ahb_bridge`. The module facilitates communication between a Wishbone master and an AHB slave, translating Wishbone protocol signals into corresponding AHB protocol signals. The bridge supports single transfers and provides configurable data width for byte, halfword, and word-level transactions.

## Specifications

### Inputs
- **Wishbone Ports (from WB Master):**
  - `clk_i`: Clock signal for Wishbone operations.
  - `rst_i`: Active-low reset signal to initialize the bridge.
  - `cyc_i`: Indicates a valid Wishbone transaction cycle.
  - `stb_i`: Strobe signal for valid data on the Wishbone interface.
  - `sel_i[3:0]`: Byte enables to select which bytes are active.
  - `we_i`: Write enable signal.
  - `addr_i[31:0]`: Address for the Wishbone transaction.
  - `data_i[31:0]`: Write data from the Wishbone master.
- **AHB Ports (from AHB Slave):**
  - `hclk`: Clock signal for AHB operations.
  - `hreset_n`: Active-low reset signal for the AHB interface.
  - `hrdata[31:0]`: Read data from the AHB slave.
  - `hresp[1:0]`: AHB response signal.
  - `hready`: Indicates when the AHB slave is ready.

### Outputs
- **Wishbone Outputs:**
  - `data_o[31:0]`: Read data back to the Wishbone master.
  - `ack_o`: Acknowledge signal for Wishbone operations.
- **AHB Outputs:**
  - `htrans[1:0]`: AHB transaction type.
  - `hsize[2:0]`: Size of the AHB transfer.
  - `hburst[2:0]`: Burst type (always single in this design).
  - `hwrite`: Write enable signal for AHB transactions.
  - `haddr[31:0]`: Address for the AHB transaction.
  - `hwdata[31:0]`: Write data to the AHB slave.

## Functional Requirements
1. **Protocol Translation**:
   - Translate Wishbone protocol signals to AHB-compliant signals.
   - Support byte, halfword, and word-level transactions based on `sel_i`.

2. **Address Fixing**:
   - Derive AHB-compliant addresses from Wishbone addresses using `sel_i`.

3. **Single Transfer Support**:
   - Only SINGLE AHB transfers (`hburst = 3'b000`) are supported.

4. **Data Handling**:
   - Perform endian conversion for read and write data between Wishbone and AHB.

5. **Control Signals**:
   - Use an FSM-like approach to manage transaction phases (`htrans`), including IDLE, NON-SEQUENTIAL, and BUSY states.

6. **Pipeline Management**:
   - Handle data and address phases for AHB transactions with proper synchronization using `hready`.

## Implementation Details
- **Endian Conversion**:
  - Convert between Wishbone's little-endian format and AHB's data handling.
  - Use `sel_i` to determine active bytes in a transfer.

- **Signal Holding**:
  - To ensure proper synchronization, hold transaction attributes (address, size, transaction type, etc.) during AHB operations.

- **Reset Behavior**:
  - Ensure all internal registers are reset to default values when `rst_i` or `hreset_n` is asserted.

- **Latency**:
  - Ensure proper acknowledgment (`ack_o`) to the Wishbone master only after completing the AHB transaction (`hready` is asserted).


## Edge Cases
1. **Invalid Byte Selection**:
   - Handle invalid or conflicting `sel_i` values gracefully without causing data corruption.

2. **AHB Slave Busy**:
   - Test the behavior when the AHB slave asserts `hready` late, stalling the transaction.

3. **Back-to-Back Transactions**:
   - Ensure correct operation when Wishbone initiates a new transaction immediately after the previous one completes.



## Expected Output Files
- rtl/wishbone_to_ahb_bridge.sv
