# cvdp_copilot_axi_register_0001

Category: cid003
Difficulty: medium

## Prompt

Design a **SystemVerilog module** named `axi_register` that implements a configurable **AXI4-Lite Slave** interface for controlling and monitoring specific hardware registers. This module allows software to interact with hardware by performing read and write operations via the AXI4-Lite protocol. The supported functionalities include:

- **Beat Counter**: A 20-bit counter that can be set and read by the AXI master.  
- **Start Signal**: A single-bit control signal to trigger a hardware operation.  
- **Done Status**: A single-bit flag indicating the completion of a hardware task.  
- **Writeback Signal**: A single-bit control signal to trigger a writeback operation.  
- **ID Register**: A fixed, read-only 32-bit register for identification purposes.

The module should adhere to the AXI4-Lite protocol, ensure proper handshaking, and handle valid data transfers with error handling for invalid operations.

---

## Design Specification

### AXI4-Lite Protocol Features

- **Handshake Mechanism**  
  Implements the AXI handshake protocol using valid and ready signals for read (`arvalid_i`, `arready_o`, `rvalid_o`, `rready_i`) and write (`awvalid_i`, `awready_o`, `wvalid_i`, `wready_o`, `bvalid_o`, `bready_i`) operations.

- **Address Decoding**  
  Decodes incoming AXI addresses (using `awaddr_i` or `araddr_i`) to access specific registers based on the lower address bits.

- **Flow Control**  
  Supports backpressure and flow control using ready signals to properly synchronize with the AXI master.

---

## Interface

### Parameters

1. **`ADDR_WIDTH`**: Specifies the width of the AXI address bus. The default value is `32`. This parameter determines the maximum addressable range of the registers. It must be a positive integer greater than or equal to 12.

2. **`DATA_WIDTH`**: Specifies the width of the AXI data bus. The default value is `32`. This parameter defines the size of the data transferred during read and write operations, and it must be a positive integer greater than or equal to 8.

### Inputs

- **`clk_i`**: The clock signal for synchronous operations. The design operates on the positive edge of the clock signal.
- **`rst_n_i`**: Active-low asynchronous reset. When de-asserted, the module returns to its initial state.
- **`[ADDR_WIDTH-1:0] awaddr_i`**: Address for write operations.
- **`awvalid_i`**: Indicates the write address is valid.
- **`[DATA_WIDTH-1:0] wdata_i`**: Data to be written, matching the address specified.
- **`wvalid_i`**: Indicates that the written data is valid.
- **`[(DATA_WIDTH/8)-1:0] wstrb_i`**: Byte-enable signals for partial or full writes.
- **`bready_i`**: Indicates that the master is ready to receive the completed response for the write.
- **`[ADDR_WIDTH-1:0] araddr_i`**: Address for read operations.
- **`arvalid_i`**: Indicates that the read address is valid.
- **`rready_i`**: Indicates that the master is ready to receive the read data.
- **`done_i`**: Indicates that a hardware task has been completed, to be reflected in the status register.

---

### Outputs

- **`awready_o`**: Indicates that the module is ready to accept the write address.
- **`wready_o`**: Indicates that the module is ready to accept the write data.
- **`[1:0] bresp_o`**: Two-bit field indicating success or error for the write transaction.
- **`bvalid_o`**: Indicates that the write completion response is valid.
- **`arready_o`**: Indicates that the module is ready to accept the read address.
- **`[DATA_WIDTH-1:0] rdata_o`**: Data returned to the master for a read request.
- **`rvalid_o`**: Indicates that read data is valid.
- **`[1:0] rresp_o`**: A two-bit field indicating success or error for the read transaction.
- **`[19:0] beat_o`**: Reflects the current value of the beat counter, configured via AXI writes.
- **`start_o`**: Single-bit control signal triggered via AXI write.
- **`writeback_o`**: Single-bit control signal to trigger a writeback operation, also set via AXI.

---

## Register Map

| **Register**  | **Offset** | **Description**              | **Access**   | **Bit Width** |
|---------------|------------|------------------------------|--------------|---------------|
| Beat          | 0x100      | 20-bit beat counter          | Read/Write   | 20            |
| Start         | 0x200      | Single-bit trigger signal    | Read/Write   | 1             |
| Done          | 0x300      | Single-bit done status       | Read/Write   | 1             |
| Writeback     | 0x400      | Single-bit writeback control | Read/Write   | 1             |
| ID            | 0x500      | Fixed identification value   | Read-Only    | 32            |

---

## Functional Description

### Write Transactions

#### Address Phase
- Provides a write address on **`awaddr_i`** and asserts **`awvalid_i`** to indicate the validity of the address.  
- The module asserts **`awready_o`** to confirm that it is ready to accept the address.  
- Once the address is accepted, **`awready_o`** is de-asserted, and the module transitions to the data phase.

#### Data Phase
- Provides the write data on **`wdata_i`**, along with byte-enable signals on **`wstrb_i`**, and asserts **`wvalid_i`**.  
- The module asserts **`wready_o`** to indicate it is ready to accept the write data.

##### Conditions:

1. **Full Write**  
   If **`wvalid_i`** is asserted and all bits in **`wstrb_i`** are set (indicating that all bytes in **`wdata_i`** are valid), the module performs a complete update of the targeted register.

2. **Partial Write**  
   If **`wvalid_i`** is asserted but not all bits in **`wstrb_i`** are set, the module acknowledges the write without modifying the targeted register. The register remains unchanged.

##### Register Updates
- The module uses the lower bits of **`awaddr_i`** to determine the target register, then updates the corresponding outputs:
  - **Beat Counter**: Updates the 20-bit counter with the lower bits of **`wdata_i`** and reflects on **`beat_o`**.
  - **Start Signal**: Sets **`start_o`** to `1` if the least significant bit of **`wdata_i`** is `1` and the corresponding byte is enabled by **`wstrb_i`**.
  - **Done Signal**: Clears **`done_i`** internally if the least significant bit is `1`, effectively resetting the done status in the module’s logic.
  - **Writeback Signal**: Sets **`writeback_o`** to `1` if the least significant bit of **`wdata_i`** is `1` and the corresponding byte is enabled by **`wstrb_i`**.
  - **ID Register**: Attempts to write to this read-only register generate an error on **`bresp_o`**.

#### Completion Phase
- After processing the write data, the module generates a write response on **`bresp_o`** and asserts **`bvalid_o`**.  
- Asserts **`bready_i`** to acknowledge the response, after which **`bvalid_o`** is deasserted.
- Possible responses:
  - **OKAY (`2'b00`)**: Indicates a successful write operation.
  - **SLVERR (`2'b10`)**: Indicates an error, such as an invalid address or an attempt to write to the read-only register.

---

### Read Transactions

#### Address Phase
- Provides a read address on **`araddr_i`** and asserts **`arvalid_i`** to indicate the validity of the address. 
- The module asserts **`arready_o`** to confirm that it is ready to accept the address. 
- Once the address is accepted, **`arready_o`** is de-asserted, and the module transitions to the data phase.

#### Data Phase
- The module decodes the address from **`araddr_i`** and retrieves the corresponding data:
  - **Beat Counter**: Returns the current 20-bit counter value on **`rdata_o`**, padded to match the data width.
  - **Done Signal**: Returns the status of **`done_i`** (e.g., `1` if the hardware task is done, `0` otherwise).
  - **ID Register**: Returns the fixed 32-bit identification value.
  - **Invalid Address**: Generates an error on **`rresp_o`**.

#### Completion Phase
- The module provides the read data on **`rdata_o`** and asserts **`rvalid_o`**.  
- The AXI master asserts **`rready_i`** to acknowledge the read data, after which **`rvalid_o`** is deasserted.
- Possible responses:
  - **OKAY (`2'b00`)**: Indicates a successful read operation.
  - **SLVERR (`2'b10`)**: Indicates an error, such as an invalid address.

---

## Edge Cases

1. **Reset (`rst_n_i`)**:  
   When reset is active, all outputs (`beat_o`, `start_o`, `writeback_o`) are deasserted, and registers are cleared to default values.

2. **Read-Only Registers**:  
   Attempts to write to the ID register generate an error response (`SLVERR`) on **`bresp_o`**, preventing unwanted modifications.

3. **Invalid Addresses**:  
   Any read or write operation targeting an undefined address generates an error response on **`rresp_o`** or **`bresp_o`**.

---

## Example Operations

### Write Example
- **Operation**: Write `0x5678` to the Beat register.  
  - **Address**: `0x100`  
  - **Data**: `0x00005678`  
  - **Result**: The 20-bit counter updates to `0x5678`, and `beat_o` reflects this new value.

### Read Example
- **Operation**: Read from the ID register.  
  - **Address**: `0x500`  
  - **Result**: The module returns `0x0001_0001` on **`rdata_o`**, indicating the fixed ID value.

### Error Example
- **Operation**: Attempt to write to the ID register.  
  - **Address**: `0x500`  
  - **Data**: Any value  
  - **Result**: The module returns an error response (`SLVERR`) on **`bresp_o`**, and the register remains unchanged.

## Expected Output Files
- rtl/axi_register.sv
