# cvdp_copilot_events_to_apb_0001

Category: cid003
Difficulty: easy

## Prompt
Design a SystemVerilog `apb_controller` module for handling event-based write transactions with an Advanced Peripheral Bus (APB) interface. The module should control APB signals for write operations triggered by external input signals along with a unique address and a data input, ensuring adherence to the APB protocol. Additionally, the design should include a timeout mechanism to prevent indefinite stalling if the peripheral does not respond within a specified period. This design should only support write operations and not read transactions.

### APB Protocol Overview

The Advanced Peripheral Bus (APB) is a simple, low-latency bus protocol often used to connect peripheral devices in a system. APB operates with a structured two-phase transaction sequence, consisting of a **SETUP** phase and an **ACCESS** phase. This controller is designed to support **write transactions only**, ensuring a straightforward approach to interfacing with peripherals on the APB.

### Design Requirements

- Event-Based Transactions:
    - The controller must handle three independent events: A, B, and C.
    - Each event includes a 32-bit address and 32-bit data for APB write transactions.
   -  Events are triggered by respective select_*_i signals (`select_a_i`, `select_b_i`, `select_c_i`).

#### Transaction Flow and Timing

The transactions follow a three-state flow:
1. **IDLE State**:
     - When any event select signal is asserted, the controller captures the corresponding address and data into internal signals.
     - If multiple select signals are asserted simultaneously, the controller prioritizes them as `select_a_i` (highest priority), followed by `select_b_i`, and then `select_c_i` (lowest priority).
     - The `IDLE` phase lasts for one clock cycle.
     - The default state is **IDLE** state, which it enters after a reset and remains in when no transactions are active   

2. **SETUP Phase**:
   - After the `IDLE` phase, the controller transitions to the `SETUP` phase.
   - in the `SETUP` phase the controller asserts `apb_psel_o`, and `apb_pwrite_o` and set up `apb_paddr_o` and `apb_pwdata_o` with the selected address and data.
   - In this phase, `apb_penable_o` remains deasserted.
   - The `SETUP` phase lasts for one clock cycle.

3. **ACCESS Phase**:
   - After the `SETUP` phase, the controller transitions to the `ACCESS` phase.
   - In `ACCESS`, `apb_penable_o` is asserted high to signal that the data transfer is in progress.
   - The controller remains in this phase, waiting for `apb_pready_i` from the peripheral to be asserted high.
   - In `ACCESS` phase, the signals `apb_psel_o`, `apb_pwrite_o`, `apb_paddr_o`, and `apb_pwdata_o` must remain stable.
   - **Write Transfer with Wait**: If `apb_pready_i` is delayed, the controller stays in `ACCESS` until `apb_pready_i` goes high.
   - **Write Transfer without Wait**: If  `apb_pready_i` goes high in the same clock cycle that the controller enters the `ACCESS` phase, the controller completes the transaction within the same cycle.

   - **Timeout Mechanism**:
      - While in the `ACCESS` phase, a 4-bit timeout counter increments each clock cycle if `apb_pready_i` remains low.
      - If `apb_pready_i` is not asserted within 15 cycles after entering `ACCESS` state, the timeout counter resets the controller to the `IDLE` state and sets all outputs to 0 at the next positive edge, effectively aborting the transaction and preventing indefinite stalling.
      - The timeout counter resets to zero after a successful transaction or when the controller returns to the `IDLE` state.

   - **Return to IDLE**:
      - After a successful transaction (when `apb_pready_i` is asserted), the controller returns to the `IDLE` state, with both `apb_psel_o` and `apb_penable_o` getting deasserted.
      - A new transaction can only start when a select signal (`select_a_i`, `select_b_i`, or `select_c_i`) is asserted and both `apb_psel_o` and `apb_penable_o` are low, ensuring only one transaction occurs at a time.

#### **Total Latency for the Transaction**
- **Minimum Latency**: From the triggering of an event, the minimum number of clock cycles required to complete a transaction and return to `IDLE` without wait states (`apb_pready_i` is asserted immediately) is **3 cycles**:
  - **SETUP State**: 1 cycle.
  - **ACCESS State**: 1 cycle.
  - **Transition to IDLE**: 1 cycle to de-assert signals and return to `IDLE`.
- **Additional Latency**: If `apb_pready_i` is delayed, additional cycles are spent in the `ACCESS` state until the peripheral is ready or a timeout occurs.

#### Inputs:
- **`clk`**: Clock signal, active on the rising edge.
- **`reset_n`**: Active-low asynchronous reset signal that resets the controller to the `IDLE` state, clears the timeout counter, and sets all registers and outputs to 0.
- **`select_a_i`**: Active-high control signal to initiate a transaction for Event A.
- **`select_b_i`**: Active-high control signal to initiate a transaction for Event B.
- **`select_c_i`**: Active-high control signal to initiate a transaction for Event C.
- **`addr_a_i [31:0]`**: Address input for Event A.
- **`data_a_i [31:0]`**: Data input for Event A.
- **`addr_b_i [31:0]`**: Address input for Event B.
- **`data_b_i [31:0]`**: Data input for Event B.
- **`addr_c_i [31:0]`**: Address input for Event C.
- **`data_c_i [31:0]`**: Data input for Event C.
- **`apb_pready_i`**:  Ready signal from the peripheral, active high. It indicates when the peripheral is ready to complete the transaction. The controller checks this signal in the `ACCESS` phase to determine transaction completion.

#### Outputs:
- **`apb_psel_o`**: An active-high signal, asserted during `SETUP`, to select the peripheral for an APB transaction.
- **`apb_penable_o`**: An active-high signal, asserted during the `ACCESS` phase, indicating the transaction is in progress.
- **`apb_pwrite_o`**: An active-high signal indicating a write operation, asserted during the `SETUP` and maintained in the `ACCESS` phase.
- **`apb_paddr_o [31:0]`**: 32-bit address output for the transaction, determined by the selected event's address input (`addr_a_i`, `addr_b_i`, or `addr_c_i`). Defaults to 0 in the `IDLE` state.
- **`apb_pwdata_o [31:0]`**: 32-bit data output for the write operation, based on the selected event's data input (`data_a_i`, `data_b_i`, or `data_c_i`). Defaults to 0 in the `IDLE` state.

### Constraints:
- Assume that event signals `select_a_i`, `select_b_i`, and `select_c_i` are pulse signals high for one clock cycle and are synchronous to the clock. 
- Assume that input data and addresses will be stable inputs when the events are triggered.
- If multiple events are triggered simultaneously, only the highest-priority event will be processed, and the rest will be discarded.
- Assume that a new event will be triggered only when the controller is in an `IDLE` state after the de-assertion of both `apb_psel_o` and `apb_penable_o` for the previous transaction.

## Expected Output Files
- rtl/apb_controller.sv
